#  HZ   S   RI   R     50.00 
! Rohde & Schwarz Vector Network Analyzer 
! Rohde-Schwarz,ZNA43-4Port,1332450044101989,3.01
! Created: UTC 3/19/2025, 2:44:09 PM
! freq[Hz]                re:S11                  im:S11
 5.000000000000000E9     6.192506814780315E-1   -6.705613435182480E-1
 5.015000000000000E9     6.038796195921529E-1   -6.812010563884877E-1
 5.030000000000000E9     5.893815248779738E-1   -6.902869698931763E-1
 5.045000000000000E9     5.763598514860625E-1   -7.029618489099485E-1
 5.060000000000000E9     5.645109859365151E-1   -7.165390307312853E-1
 5.075000000000000E9     5.494813167150815E-1   -7.270996816182888E-1
 5.090000000000000E9     5.304540681169549E-1   -7.334150286390367E-1
 5.105000000000000E9     5.137040352104708E-1   -7.407886943929061E-1
 5.120000000000000E9     4.962547526110486E-1   -7.493700605136423E-1
 5.135000000000000E9     4.795735635425938E-1   -7.553778492496860E-1
 5.150000000000000E9     4.605909453715133E-1   -7.608819602756443E-1
 5.165000000000000E9     4.419848070660166E-1   -7.701022770933906E-1
 5.180000000000000E9     4.238435157000596E-1   -7.739490614032869E-1
 5.195000000000000E9     4.066032569736758E-1   -7.820025542932311E-1
 5.210000000000000E9     3.863240232945331E-1   -7.879030030069031E-1
 5.225000000000000E9     3.663590229232837E-1   -7.917765231961774E-1
 5.240000000000000E9     3.501332682726840E-1   -7.907783678145451E-1
 5.255000000000000E9     3.346444366249216E-1   -7.961671037881837E-1
 5.270000000000000E9     3.111323255602243E-1   -8.033698666494983E-1
 5.285000000000000E9     2.885022166332351E-1   -8.080417303970142E-1
 5.300000000000000E9     2.657972846992131E-1   -8.114173339042112E-1
 5.315000000000000E9     2.479040595887444E-1   -8.098462566513461E-1
 5.330000000000000E9     2.287478609577768E-1   -8.147355725076110E-1
 5.345000000000000E9     2.055676951778662E-1   -8.151052650823222E-1
 5.360000000000000E9     1.826870711095126E-1   -8.094566423633570E-1
 5.375000000000000E9     1.615885353177626E-1   -8.079063458598943E-1
 5.390000000000000E9     1.374524825528614E-1   -8.043833291217084E-1
 5.405000000000000E9     1.159418836015738E-1   -7.994696392471645E-1
 5.420000000000000E9     9.247931106548503E-2   -7.960367013719045E-1
 5.435000000000000E9     6.987272522706564E-2   -7.890025056717502E-1
 5.450000000000000E9     5.040222794609313E-2   -7.872052168801442E-1
 5.465000000000000E9     3.033545527420085E-2   -7.804372632278342E-1
 5.480000000000000E9     9.837695113465045E-3   -7.745156143132702E-1
 5.495000000000000E9    -1.332991807435321E-2   -7.653409471082913E-1
 5.510000000000000E9    -3.915394530641083E-2   -7.532636980604803E-1
 5.525000000000000E9    -6.226180198557812E-2   -7.410700720582126E-1
 5.540000000000000E9    -8.386957473363718E-2   -7.288414068292718E-1
 5.555000000000000E9    -9.404102313335008E-2   -7.116766396556168E-1
 5.570000000000000E9    -1.045060179172564E-1   -6.996300207138071E-1
 5.585000000000000E9    -1.410819242982484E-1   -6.916047758696324E-1
 5.600000000000000E9    -1.750505448100045E-1   -6.672335109229660E-1
 5.615000000000000E9    -1.951478928788652E-1   -6.455108174146759E-1
 5.630000000000000E9    -2.085194741267179E-1   -6.285709415791305E-1
 5.645000000000000E9    -2.245578451800294E-1   -6.119882747725529E-1
 5.660000000000000E9    -2.491935882043796E-1   -5.894504947735468E-1
 5.675000000000000E9    -2.644266327719088E-1   -5.616800116301091E-1
 5.690000000000000E9    -2.835804216219535E-1   -5.366428248554275E-1
 5.705000000000000E9    -3.006797700724652E-1   -5.120171856491731E-1
 5.720000000000000E9    -3.151761194429304E-1   -4.790344613237497E-1
 5.735000000000000E9    -3.300782390350383E-1   -4.385559927667642E-1
 5.750000000000000E9    -3.425351418181786E-1   -4.051175618342863E-1
 5.765000000000000E9    -3.459127312732884E-1   -3.767899411280102E-1
 5.780000000000000E9    -3.511639998102297E-1   -3.375687657184372E-1
 5.795000000000000E9    -3.532598990083594E-1   -2.988441496001788E-1
 5.810000000000000E9    -3.471044741443809E-1   -2.651236830484817E-1
 5.825000000000000E9    -3.473218221299241E-1   -2.271087285650635E-1
 5.840000000000000E9    -3.393558501996562E-1   -1.835653562184664E-1
 5.855000000000000E9    -3.213449088433429E-1   -1.465724330665769E-1
 5.870000000000000E9    -3.054028450084633E-1   -1.096463955397162E-1
 5.885000000000000E9    -2.869017697191587E-1   -7.150337998880495E-2
 5.900000000000000E9    -2.626927448914176E-1   -3.577209475859763E-2
 5.915000000000000E9    -2.325338098280406E-1    3.967890887861315E-3
 5.930000000000000E9    -2.005804500804115E-1    3.313830490306497E-2
 5.945000000000000E9    -1.619713147084014E-1    5.895359244881705E-2
 5.960000000000000E9    -1.238617924714235E-1    8.202427850534381E-2
 5.975000000000000E9    -8.804016590000006E-2    9.440349449749356E-2
 5.990000000000000E9    -4.474704234845418E-2    1.086464876596067E-1
 6.005000000000000E9     3.652106770075370E-3    1.184316939592603E-1
 6.020000000000000E9     4.734863766706295E-2    1.188316101257307E-1
 6.035000000000000E9     9.258670154695794E-2    1.124142363971862E-1
 6.050000000000000E9     1.312787827526712E-1    1.118824666110690E-1
 6.065000000000000E9     1.779415123540149E-1    1.028628803614753E-1
 6.080000000000000E9     2.167899037776844E-1    8.394014273986222E-2
 6.095000000000000E9     2.500328379235807E-1    6.832217603634379E-2
 6.110000000000000E9     2.807849158673066E-1    5.086519847815034E-2
 6.125000000000000E9     3.143049562442617E-1    2.836265032964461E-2
 6.140000000000000E9     3.432724705700204E-1    2.739982530954346E-3
 6.155000000000000E9     3.659580640483211E-1   -2.198561402820601E-2
 6.170000000000000E9     3.923487267688818E-1   -5.096949764934423E-2
 6.185000000000000E9     4.150489810062902E-1   -8.365762300085337E-2
 6.200000000000000E9     4.291884822230973E-1   -1.210779009742646E-1
 6.215000000000000E9     4.429931898291274E-1   -1.532575981601035E-1
 6.230000000000000E9     4.600708144408699E-1   -1.832117611749344E-1
 6.245000000000000E9     4.702603766401671E-1   -2.214876548798301E-1
 6.260000000000000E9     4.728052198307272E-1   -2.574934523940898E-1
 6.275000000000000E9     4.738267483746939E-1   -2.882040868704270E-1
 6.290000000000000E9     4.748450589935191E-1   -3.221307680243672E-1
 6.305000000000000E9     4.728271154646955E-1   -3.551604303794235E-1
 6.320000000000000E9     4.657976640217991E-1   -3.860636069961277E-1
 6.335000000000000E9     4.570791798105299E-1   -4.163842700698599E-1
 6.350000000000000E9     4.492016273772912E-1   -4.496951763369205E-1
 6.365000000000000E9     4.372274917197435E-1   -4.780723747200391E-1
 6.380000000000000E9     4.235907096923986E-1   -5.072560207769228E-1
 6.395000000000000E9     4.113011048836124E-1   -5.363630742161125E-1
 6.410000000000000E9     3.946643283155479E-1   -5.630487954515091E-1
 6.425000000000000E9     3.747438380176744E-1   -5.855395790030880E-1
 6.440000000000000E9     3.604240951034566E-1   -6.082816766124585E-1
 6.455000000000000E9     3.416951794210051E-1   -6.317483733332444E-1
 6.470000000000000E9     3.165194075812359E-1   -6.524959919725613E-1
 6.485000000000000E9     2.947943083633067E-1   -6.702021164004547E-1
 6.500000000000000E9     2.701622287623823E-1   -6.904408796150379E-1
 6.515000000000000E9     2.418436472039503E-1   -7.035009260673606E-1
 6.530000000000000E9     2.191181107704654E-1   -7.174685051260390E-1
 6.545000000000000E9     1.925392841179040E-1   -7.280629210407820E-1
 6.560000000000000E9     1.636154606847733E-1   -7.406437601046738E-1
 6.575000000000000E9     1.381948408213780E-1   -7.550083918611538E-1
 6.590000000000000E9     1.096869259546567E-1   -7.641386677739607E-1
 6.605000000000000E9     7.831351503173109E-2   -7.718215891838759E-1
 6.620000000000000E9     5.462867077163752E-2   -7.765849627281991E-1
 6.635000000000000E9     2.689711751667392E-2   -7.793229598912379E-1
 6.650000000000000E9    -4.839088454014952E-3   -7.789607252799704E-1
 6.665000000000000E9    -3.075002081338292E-2   -7.820668841172410E-1
 6.680000000000000E9    -5.920110506075961E-2   -7.830632761471069E-1
 6.695000000000000E9    -9.040473833796295E-2   -7.814761942465025E-1
 6.710000000000000E9    -1.184782400231611E-1   -7.772125302718380E-1
 6.725000000000000E9    -1.499863034018445E-1   -7.697524059186446E-1
 6.740000000000000E9    -1.800172096172230E-1   -7.626154268680316E-1
 6.755000000000000E9    -2.067981333211062E-1   -7.567511868550276E-1
 6.770000000000000E9    -2.333777628026780E-1   -7.476652907115401E-1
 6.785000000000000E9    -2.618311245915982E-1   -7.410854967762536E-1
 6.800000000000000E9    -2.874452471840073E-1   -7.293796091409639E-1
 6.815000000000000E9    -3.153613610534441E-1   -7.082616044953416E-1
 6.830000000000000E9    -3.415848165395213E-1   -6.917295658717191E-1
 6.845000000000000E9    -3.641622573964513E-1   -6.783790291603513E-1
 6.860000000000000E9    -3.902407559565246E-1   -6.584471634057425E-1
 6.875000000000000E9    -4.133281858841797E-1   -6.372547757056882E-1
 6.890000000000000E9    -4.365740170026744E-1   -6.179689562332046E-1
 6.905000000000000E9    -4.617347266040691E-1   -5.935522368225289E-1
 6.920000000000000E9    -4.826175426560551E-1   -5.711724304411129E-1
 6.935000000000000E9    -5.031007078631001E-1   -5.470634223279931E-1
 6.950000000000000E9    -5.225066606431218E-1   -5.185453353583191E-1
 6.965000000000000E9    -5.439590815089047E-1   -4.930730663847721E-1
 6.980000000000000E9    -5.581446873049191E-1   -4.645962732634037E-1
 6.995000000000000E9    -5.800793562582991E-1   -4.363641717633199E-1
 7.010000000000000E9    -5.980659953062285E-1   -4.063985042147963E-1
 7.025000000000000E9    -6.006239266412361E-1   -3.715738355471635E-1
 7.040000000000000E9    -6.081733927504650E-1   -3.323544677678134E-1
 7.055000000000000E9    -6.172964208321463E-1   -2.954165073425248E-1
 7.070000000000000E9    -6.216730463442145E-1   -2.588093211935975E-1
 7.085000000000000E9    -6.260829928839792E-1   -2.151054317163398E-1
 7.100000000000000E9    -6.255683531365924E-1   -1.747024559698360E-1
 7.115000000000000E9    -6.273408594251989E-1   -1.377076437440747E-1
 7.130000000000000E9    -6.249910984734318E-1   -9.664084078247054E-2
 7.145000000000000E9    -6.156425024770358E-1   -5.558975834636441E-2
 7.160000000000000E9    -6.060576455371066E-1   -1.361928662964623E-2
 7.175000000000000E9    -5.890877751086636E-1    2.612465969302086E-2
 7.190000000000000E9    -5.701337795092205E-1    6.546046265086597E-2
 7.205000000000000E9    -5.513024589355828E-1    1.080459382521890E-1
 7.220000000000000E9    -5.253437945621352E-1    1.571326509103681E-1
 7.235000000000000E9    -4.967240635518556E-1    1.997251570788593E-1
 7.250000000000000E9    -4.677478343365434E-1    2.303473774100350E-1
 7.265000000000000E9    -4.334976284657207E-1    2.616155257085090E-1
 7.280000000000000E9    -3.969667495551878E-1    2.921213091163108E-1
 7.295000000000000E9    -3.562857232450178E-1    3.247233933281718E-1
 7.310000000000000E9    -3.124496077013988E-1    3.481443906454850E-1
 7.325000000000000E9    -2.662235650063143E-1    3.712024011949805E-1
 7.340000000000000E9    -2.131667405713679E-1    3.887858500654832E-1
 7.355000000000000E9    -1.608997253222600E-1    4.014918368893258E-1
 7.370000000000000E9    -1.052465749209711E-1    4.094730285369276E-1
 7.385000000000000E9    -5.207395314588875E-2    4.125147077006081E-1
 7.400000000000000E9     5.230472633302836E-3    4.147732293768403E-1
 7.415000000000000E9     5.993071331746939E-2    4.077858668425893E-1
 7.430000000000000E9     1.101601026396627E-1    3.975454782693175E-1
 7.445000000000000E9     1.627615470073542E-1    3.841355606226985E-1
 7.460000000000000E9     2.137549843631934E-1    3.603287942606162E-1
 7.475000000000000E9     2.587498999116924E-1    3.371649670552890E-1
 7.490000000000000E9     3.060089215239430E-1    3.100316181529709E-1
 7.505000000000000E9     3.484496541891242E-1    2.743853956253183E-1
 7.520000000000000E9     3.841636595126297E-1    2.367158562925794E-1
 7.535000000000000E9     4.194310606640300E-1    1.986619725402269E-1
 7.550000000000000E9     4.501095652708652E-1    1.562423458073483E-1
 7.565000000000000E9     4.803434528419337E-1    1.137113600426127E-1
 7.580000000000000E9     5.047412815492048E-1    6.571931386571313E-2
 7.595000000000000E9     5.242400764567550E-1    2.258401099919352E-2
 7.610000000000000E9     5.396155219292820E-1   -2.271694509104457E-2
 7.625000000000000E9     5.532107602191998E-1   -6.571007702458150E-2
 7.640000000000000E9     5.612468862129126E-1   -1.113772600402805E-1
 7.655000000000000E9     5.636418160213783E-1   -1.593235683626128E-1
 7.670000000000000E9     5.613546465901380E-1   -2.022457563732837E-1
 7.685000000000000E9     5.614447030794019E-1   -2.474539061891448E-1
 7.700000000000000E9     5.537782280707312E-1   -2.912718054152389E-1
 7.715000000000000E9     5.471101620063723E-1   -3.341841653793923E-1
 7.730000000000000E9     5.337056309366743E-1   -3.776751988834723E-1
 7.745000000000000E9     5.231010996433302E-1   -4.149160891247358E-1
 7.760000000000000E9     5.118022590505219E-1   -4.498165961711960E-1
 7.775000000000000E9     4.993918445177786E-1   -4.845951141933864E-1
 7.790000000000000E9     4.769016866200058E-1   -5.207991451113289E-1
 7.805000000000000E9     4.534709085386119E-1   -5.533656438014931E-1
 7.820000000000000E9     4.327082629779366E-1   -5.798433446775209E-1
 7.835000000000000E9     4.112075477483239E-1   -6.089621161301686E-1
 7.850000000000000E9     3.850459062468765E-1   -6.341591369023126E-1
 7.865000000000000E9     3.611093922488169E-1   -6.558197414645469E-1
 7.880000000000000E9     3.366464488537720E-1   -6.795453910055564E-1
 7.895000000000000E9     3.085274488104265E-1   -7.025853288766409E-1
 7.910000000000000E9     2.814041590310719E-1   -7.218513114025609E-1
 7.925000000000000E9     2.557489836470812E-1   -7.410658300190156E-1
 7.940000000000000E9     2.277344927208107E-1   -7.587320528579379E-1
 7.955000000000000E9     2.014156840878494E-1   -7.738292811842974E-1
 7.970000000000000E9     1.759502007678073E-1   -7.890432301027018E-1
 7.985000000000000E9     1.512177882773389E-1   -8.031053187821634E-1
 8.000000000000000E9     1.246172341681844E-1   -8.160996475063823E-1
